
T33CC 000:532 SEGGER J-Link V4.91b (beta) Log File (0023ms, 0351ms total)
T33CC 000:532 DLL Compiled: Sep 15 2014 09:17:56 (0032ms, 0360ms total)
T33CC 000:532 Logging started @ 2017-04-09 17:06 (0040ms, 0368ms total)
T33CC 000:573 JLINK_SetWarnOutHandler(...) (0006ms, 0375ms total)
T33CC 000:581 JLINK_OpenEx(...)
Firmware: J-Link ARM V8 compiled Nov 28 2014 13:44:46
Hardware: V8.00
Feature(s): RDI,FlashDL,FlashBP,JFlash,GDBFULL  returns O.K. (0339ms, 0716ms total)
T33CC 000:924 JLINK_SetErrorOutHandler(...) (0008ms, 0728ms total)
T33CC 000:934 JLINK_ExecCommand("ProjectFile = "Z:\sihan\lpc\gateway\JLinkSettings.ini"", ...)Device "CORTEX-M0+" selected (0 KB flash, 0 KB RAM).  returns 0x00 (0027ms, 0757ms total)
T33CC 000:969 JLINK_ExecCommand("Device = LPC824M201JHI33", ...)Device "CORTEX-M0+" selected (0 KB flash, 0 KB RAM).  returns 0x00 (0013ms, 0777ms total)
T33CC 000:990 JLINK_ExecCommand("DisableConnectionTimeout", ...)  returns 0x01 (0003ms, 0787ms total)
T33CC 001:000 JLINK_GetHardwareVersion()  returns 0x13880 (0008ms, 0797ms total)
T33CC 001:010 JLINK_GetDLLVersion()  returns 49102 (0004ms, 0803ms total)
T33CC 001:016 JLINK_GetFirmwareString(...) (0005ms, 0810ms total)
T33CC 001:083 JLINK_GetDLLVersion()  returns 49102 (0006ms, 0818ms total)
T33CC 001:090 JLINK_GetCompileDateTime() (0005ms, 0824ms total)
T33CC 001:104 JLINK_GetFirmwareString(...) (0005ms, 0831ms total)
T33CC 001:117 JLINK_GetHardwareVersion()  returns 0x13880 (0007ms, 0839ms total)
T33CC 001:145 JLINK_TIF_Select(JLINKARM_TIF_SWD)  returns 0x00 (0007ms, 0847ms total)
T33CC 001:155 JLINK_SetSpeed(2000) (0004ms, 0854ms total)
T33CC 001:161 JLINK_GetId() >0x108 TIF>Found SWD-DP with ID 0x0BC11477 >0x0D TIF> >0x21 TIF> >0x0D TIF> >0x28 TIF> >0x0D TIF> >0x28 TIF> >0x0D TIF> >0x21 TIF> >0x0D TIF> >0x28 TIF> >0x0D TIF> >0x21 TIF> >0x0D TIF> >0x21 TIF> >0x0D TIF> >0x21 TIF> >0x0D TIF> >0x28 TIF> >0x0D TIF> >0x28 TIF> >0x0D TIF> >0x28 TIF> >0x0D TIF> >0x21 TIF> >0x0D TIF> >0x21 TIF> >0x0D TIF> >0x28 TIF> >0x0D TIF> >0x21 TIF> >0x0D TIF> >0x21 TIF> >0x0D TIF> >0x21 TIF> >0x0D TIF> >0x21 TIF> >0x0D TIF> >0x21 TIF> >0x0D TIF>
 >0x28 TIF> >0x0D TIF> >0x21 TIF> >0x0D TIF> >0x21 TIF> >0x0D TIF> >0x21 TIF> >0x0D TIF> >0x28 TIF> >0x0D TIF> >0x28 TIF> >0x0D TIF> >0x21 TIF> >0x0D TIF> >0x28 TIF> >0x0D TIF> >0x28 TIF> >0x0D TIF> >0x28 TIF> >0x0D TIF> >0x21 TIF> >0x0D TIF> >0x21 TIF> >0x0D TIF> >0x28 TIF> >0x0D TIF> >0x21 TIF> >0x0D TIF> >0x21 TIF>Found Cortex-M0 r0p1, Little endian. -- CPU_WriteMem(4 bytes @ 0xE0002000) -- CPU_ReadMem(4 bytes @ 0xE000EDF0) -- CPU_ReadMem(4 bytes @ 0xE0002000)
FPUnit: 4 code (BP) slots and 0 literal slots -- CPU_ReadMem(4 bytes @ 0xE000EDFC) -- CPU_ReadMem(4 bytes @ 0xE0001000) -- CPU_WriteMem(4 bytes @ 0xE0001000) -- CPU_ReadMem(4 bytes @ 0xE00FF018) >0x0D TIF> >0x21 TIF>  returns 0x0BC11477 (0386ms, 1242ms total)
T33CC 001:549 JLINK_GetDeviceFamily()  returns 6 (0008ms, 1252ms total)
T33CC 001:575 JLINK_ReadMem (0xE00FFFF0, 0x0010 Bytes, ...) -- CPU is running -- CPU_ReadMem(16 bytes @ 0xE00FFFF0) - Data: 0D 00 00 00 10 00 00 00 05 00 00 00 B1 00 00 00  returns 0x00 (0017ms, 1271ms total)
T33CC 001:594 JLINK_ReadMem (0xE00FFFD0, 0x0020 Bytes, ...) -- CPU is running -- CPU_ReadMem(32 bytes @ 0xE00FFFD0) - Data: 04 00 00 00 00 00 00 00 00 00 00 00 00 00 00 00 ...  returns 0x00 (0013ms, 1286ms total)
T33CC 001:608 JLINK_ReadMem (0xE00FF000, 0x0018 Bytes, ...) -- CPU is running -- CPU_ReadMem(24 bytes @ 0xE00FF000) - Data: 03 F0 F0 FF 03 20 F0 FF 03 30 F0 FF 00 00 00 00 ...  returns 0x00 (0011ms, 1298ms total)
T33CC 001:620 JLINK_ReadMemU32(0xE000ED00, 0x0001 Items, ...) -- CPU is running -- CPU_ReadMem(4 bytes @ 0xE000ED00) - Data: 01 C6 0C 41  returns 0x01 (0010ms, 1309ms total)
T33CC 001:632 JLINK_SetResetType(JLINKARM_RESET_TYPE_NORMAL)  returns JLINKARM_RESET_TYPE_NORMAL (0006ms, 1317ms total)
T33CC 001:640 JLINK_Reset() -- CPU is running -- CPU_WriteMem(4 bytes @ 0xE000EDF0) -- CPU is running -- CPU_WriteMem(4 bytes @ 0xE000EDFC) >0x35 TIF> -- CPU is running -- CPU_WriteMem(4 bytes @ 0xE000ED0C) -- CPU is running -- CPU_ReadMem(4 bytes @ 0xE000EDF0) -- CPU is running -- CPU_ReadMem(4 bytes @ 0xE000EDF0) -- CPU is running -- CPU_WriteMem(4 bytes @ 0xE000EDF0) -- CPU is running -- CPU_WriteMem(4 bytes @ 0xE000EDFC) -- CPU is running -- CPU_ReadMem(4 bytes @ 0xE000EDF0)
 -- CPU_WriteMem(4 bytes @ 0xE000EDFC) -- CPU_WriteMem(4 bytes @ 0xE000EDFC) -- CPU_WriteMem(4 bytes @ 0xE000EDFC) -- CPU_WriteMem(4 bytes @ 0xE0001020) -- CPU_WriteMem(4 bytes @ 0xE0001024) -- CPU_WriteMem(4 bytes @ 0xE0001028) -- CPU_WriteMem(4 bytes @ 0xE000EDFC) -- CPU_WriteMem(4 bytes @ 0xE0001028) -- CPU_ReadMem(4 bytes @ 0x00000004) -- CPU_ReadMem(4 bytes @ 0xE0002000) -- CPU_ReadMem(4 bytes @ 0xE0002008) -- CPU_ReadMem(4 bytes @ 0xE000200C) -- CPU_ReadMem(4 bytes @ 0xE0002010)
 -- CPU_ReadMem(4 bytes @ 0xE0002014) -- CPU_WriteMem(4 bytes @ 0xE0002000) -- CPU_WriteMem(4 bytes @ 0xE0002008) -- CPU_WriteMem(4 bytes @ 0xE000200C) -- CPU_WriteMem(4 bytes @ 0xE0002010) -- CPU_WriteMem(4 bytes @ 0xE0002014) -- CPU_WriteMem(4 bytes @ 0xE0002000) -- CPU_WriteMem(4 bytes @ 0xE0002008) -- CPU_WriteMem(4 bytes @ 0xE000200C) -- CPU_WriteMem(4 bytes @ 0xE0002010) -- CPU_WriteMem(4 bytes @ 0xE0002014) -- CPU_WriteMem(4 bytes @ 0xE0002000) -- CPU_ReadMem(4 bytes @ 0xE000EDFC)
 -- CPU_ReadMem(4 bytes @ 0xE0001000) -- CPU_WriteMem(4 bytes @ 0xE0001000) (0344ms, 1663ms total)
T33CC 001:988 JLINK_Halt()  returns 0x00 (0007ms, 1674ms total)
T33CC 001:996 JLINK_IsHalted()  returns TRUE (0009ms, 1684ms total)
T33CC 002:007 JLINK_ReadMemU32(0xE000EDF0, 0x0001 Items, ...) -- CPU_ReadMem(4 bytes @ 0xE000EDF0) - Data: 03 00 03 01  returns 0x01 (0011ms, 1686ms total)
T33CC 002:020 JLINK_WriteU32(0xE000EDF0, 0xA05F0003) -- CPU_WriteMem(4 bytes @ 0xE000EDF0)  returns 0x00 (0012ms, 1700ms total)
T33CC 002:035 JLINK_WriteU32(0xE000EDFC, 0x01000000) -- CPU_WriteMem(4 bytes @ 0xE000EDFC)  returns 0x00 (0009ms, 1712ms total)
T33CC 002:075 JLINK_GetHWStatus(...)  returns 0x00 (0008ms, 1721ms total)
T33CC 002:109 JLINK_GetNumBPUnits(Type = 0xFFFFFF00)  returns 0x04 (0008ms, 1731ms total)
T33CC 002:119 JLINK_GetNumBPUnits(Type = 0xF0)  returns 0x2000 (0006ms, 1739ms total)
T33CC 002:127 JLINK_GetNumWPUnits()  returns 0x02 (0006ms, 1747ms total)
T33CC 002:155 JLINK_GetSpeed()  returns 0x7D0 (0007ms, 1755ms total)
T33CC 002:177 JLINK_ReadMemU32(0xE000E004, 0x0001 Items, ...) -- CPU_ReadMem(4 bytes @ 0xE000E004) - Data: 00 00 00 00  returns 0x01 (0011ms, 1767ms total)
T33CC 002:191 JLINK_Halt()  returns 0x00 (0008ms, 1778ms total)
T33CC 002:200 JLINK_IsHalted()  returns TRUE (0011ms, 1790ms total)
T33CC 002:217 JLINK_WriteMem(0x10000000, 0x0178 Bytes, ...) - Data: 00 BE 0A E0 0D 78 2D 06 68 40 08 24 40 00 00 D3 ... -- CPU_WriteMem(376 bytes @ 0x10000000)  returns 0x178 (0015ms, 1794ms total)
T33CC 002:233 JLINK_WriteReg(R0, 0x00000000)  returns 0x00 (0007ms, 1802ms total)
T33CC 002:242 JLINK_WriteReg(R1, 0x00B71B00)  returns 0x00 (0005ms, 1809ms total)
T33CC 002:249 JLINK_WriteReg(R2, 0x00000001)  returns 0x00 (0006ms, 1817ms total)
T33CC 002:257 JLINK_WriteReg(R3, 0x00000000)  returns 0x00 (0004ms, 1823ms total)
T33CC 002:263 JLINK_WriteReg(R4, 0x00000000)  returns 0x00 (0007ms, 1832ms total)
T33CC 002:271 JLINK_WriteReg(R5, 0x00000000)  returns 0x00 (0005ms, 1838ms total)
T33CC 002:277 JLINK_WriteReg(R6, 0x00000000)  returns 0x00 (0005ms, 1844ms total)
T33CC 002:283 JLINK_WriteReg(R7, 0x00000000)  returns 0x00 (0005ms, 1850ms total)
T33CC 002:289 JLINK_WriteReg(R8, 0x00000000)  returns 0x00 (0006ms, 1857ms total)
T33CC 002:296 JLINK_WriteReg(R9, 0x10000170)  returns 0x00 (0008ms, 1866ms total)
T33CC 002:305 JLINK_WriteReg(R10, 0x00000000)  returns 0x00 (0006ms, 1873ms total)
T33CC 002:312 JLINK_WriteReg(R11, 0x00000000)  returns 0x00 (0005ms, 1879ms total)
T33CC 002:319 JLINK_WriteReg(R12, 0x00000000)  returns 0x00 (0006ms, 1887ms total)
T33CC 002:326 JLINK_WriteReg(R13 (SP), 0x10000FE0)  returns 0x00 (0007ms, 1895ms total)
T33CC 002:334 JLINK_WriteReg(R14, 0x10000001)  returns 0x00 (0006ms, 1902ms total)
T33CC 002:341 JLINK_WriteReg(R15 (PC), 0x1000003C)  returns 0x00 (0006ms, 1909ms total)
T33CC 002:348 JLINK_WriteReg(XPSR, 0x01000000)  returns 0x00 (0006ms, 1916ms total)
T33CC 002:355 JLINK_WriteReg(MSP, 0x10000FE0)  returns 0x00 (0004ms, 1921ms total)
T33CC 002:361 JLINK_WriteReg(PSP, 0x10000FE0)  returns 0x00 (0004ms, 1927ms total)
T33CC 002:366 JLINK_WriteReg(CFBP, 0x00000000)  returns 0x00 (0005ms, 1933ms total)
T33CC 002:373 JLINK_SetBPEx(Addr = 0x10000000, Type = 0xFFFFFFF2)  returns 0x00000001 (0003ms, 1938ms total)
T33CC 002:378 JLINK_Go() -- CPU_WriteMem(4 bytes @ 0xE0002000) -- CPU_WriteMem(4 bytes @ 0xE0002008) -- CPU_WriteMem(4 bytes @ 0xE000200C) -- CPU_WriteMem(4 bytes @ 0xE0002010) -- CPU_WriteMem(4 bytes @ 0xE0002014) -- CPU_WriteMem(4 bytes @ 0xE0001004) (0019ms, 1959ms total)
T33CC 002:398 JLINK_IsHalted()  returns TRUE (0009ms, 1969ms total)
T33CC 002:408 JLINK_ReadReg(R15 (PC))  returns 0x10000000 (0007ms, 1967ms total)
T33CC 002:417 JLINK_ClrBPEx(BPHandle = 0x00000001)  returns 0x00 (0006ms, 1975ms total)
T33CC 002:425 JLINK_ReadReg(R0)  returns 0x00000000 (0006ms, 1983ms total)
T33CC 002:433 JLINK_WriteReg(R0, 0x00000000)  returns 0x00 (0007ms, 1992ms total)
T33CC 002:441 JLINK_WriteReg(R1, 0x00B71B00)  returns 0x00 (0007ms, 2000ms total)
T33CC 002:449 JLINK_WriteReg(R2, 0x00000001)  returns 0x00 (0006ms, 2007ms total)
T33CC 002:457 JLINK_WriteReg(R3, 0x00000000)  returns 0x00 (0006ms, 2015ms total)
T33CC 002:465 JLINK_WriteReg(R4, 0x00000000)  returns 0x00 (0006ms, 2023ms total)
T33CC 002:473 JLINK_WriteReg(R5, 0x00000000)  returns 0x00 (0004ms, 2029ms total)
T33CC 002:478 JLINK_WriteReg(R6, 0x00000000)  returns 0x00 (0006ms, 2036ms total)
T33CC 002:486 JLINK_WriteReg(R7, 0x00000000)  returns 0x00 (0006ms, 2044ms total)
T33CC 002:493 JLINK_WriteReg(R8, 0x00000000)  returns 0x00 (0006ms, 2051ms total)
T33CC 002:500 JLINK_WriteReg(R9, 0x10000170)  returns 0x00 (0006ms, 2058ms total)
T33CC 002:508 JLINK_WriteReg(R10, 0x00000000)  returns 0x00 (0005ms, 2065ms total)
T33CC 002:514 JLINK_WriteReg(R11, 0x00000000)  returns 0x00 (0007ms, 2073ms total)
T33CC 002:523 JLINK_WriteReg(R12, 0x00000000)  returns 0x00 (0005ms, 2080ms total)
T33CC 002:529 JLINK_WriteReg(R13 (SP), 0x10000FE0)  returns 0x00 (0006ms, 2087ms total)
T33CC 002:537 JLINK_WriteReg(R14, 0x10000001)  returns 0x00 (0006ms, 2095ms total)
T33CC 002:544 JLINK_WriteReg(R15 (PC), 0x10000064)  returns 0x00 (0006ms, 2102ms total)
T33CC 002:553 JLINK_WriteReg(XPSR, 0x01000000)  returns 0x00 (0005ms, 2110ms total)
T33CC 002:560 JLINK_WriteReg(MSP, 0x10000FE0)  returns 0x00 (0006ms, 2118ms total)
T33CC 002:567 JLINK_WriteReg(PSP, 0x10000FE0)  returns 0x00 (0007ms, 2126ms total)
T33CC 002:575 JLINK_WriteReg(CFBP, 0x00000000)  returns 0x00 (0006ms, 2133ms total)
T33CC 002:583 JLINK_SetBPEx(Addr = 0x10000000, Type = 0xFFFFFFF2)  returns 0x00000002 (0006ms, 2141ms total)
T33CC 002:591 JLINK_Go() -- CPU_WriteMem(4 bytes @ 0xE0002000) (0007ms, 2150ms total)
T33CC 002:600 JLINK_IsHalted()  returns FALSE (0006ms, 2158ms total)
T33CC 002:844 JLINK_IsHalted()  returns TRUE (0010ms, 2162ms total)
T33CC 002:855 JLINK_ReadReg(R15 (PC))  returns 0x10000000 (0007ms, 2159ms total)
T33CC 002:864 JLINK_ClrBPEx(BPHandle = 0x00000002)  returns 0x00 (0006ms, 2167ms total)
T33CC 002:872 JLINK_ReadReg(R0)  returns 0x00000000 (0007ms, 2176ms total)
T33CC 002:933 JLINK_WriteReg(R0, 0x00000001)  returns 0x00 (0007ms, 2184ms total)
T33CC 002:942 JLINK_WriteReg(R1, 0x00B71B00)  returns 0x00 (0008ms, 2194ms total)
T33CC 002:950 JLINK_WriteReg(R2, 0x00000001)  returns 0x00 (0008ms, 2202ms total)
T33CC 002:960 JLINK_WriteReg(R3, 0x00000000)  returns 0x00 (0008ms, 2212ms total)
T33CC 002:970 JLINK_WriteReg(R4, 0x00000000)  returns 0x00 (0007ms, 2221ms total)
T33CC 002:979 JLINK_WriteReg(R5, 0x00000000)  returns 0x00 (0005ms, 2228ms total)
T33CC 002:986 JLINK_WriteReg(R6, 0x00000000)  returns 0x00 (0006ms, 2236ms total)
T33CC 002:994 JLINK_WriteReg(R7, 0x00000000)  returns 0x00 (0007ms, 2245ms total)
T33CC 003:002 JLINK_WriteReg(R8, 0x00000000)  returns 0x00 (0007ms, 2253ms total)
T33CC 003:011 JLINK_WriteReg(R9, 0x10000170)  returns 0x00 (0005ms, 2259ms total)
T33CC 003:018 JLINK_WriteReg(R10, 0x00000000)  returns 0x00 (0007ms, 2268ms total)
T33CC 003:026 JLINK_WriteReg(R11, 0x00000000)  returns 0x00 (0007ms, 2276ms total)
T33CC 003:034 JLINK_WriteReg(R12, 0x00000000)  returns 0x00 (0006ms, 2283ms total)
T33CC 003:042 JLINK_WriteReg(R13 (SP), 0x10000FE0)  returns 0x00 (0005ms, 2289ms total)
T33CC 003:050 JLINK_WriteReg(R14, 0x10000001)  returns 0x00 (0006ms, 2298ms total)
T33CC 003:058 JLINK_WriteReg(R15 (PC), 0x10000060)  returns 0x00 (0006ms, 2306ms total)
T33CC 003:065 JLINK_WriteReg(XPSR, 0x01000000)  returns 0x00 (0006ms, 2313ms total)
T33CC 003:072 JLINK_WriteReg(MSP, 0x10000FE0)  returns 0x00 (0006ms, 2320ms total)
T33CC 003:080 JLINK_WriteReg(PSP, 0x10000FE0)  returns 0x00 (0006ms, 2328ms total)
T33CC 003:087 JLINK_WriteReg(CFBP, 0x00000000)  returns 0x00 (0006ms, 2335ms total)
T33CC 003:094 JLINK_SetBPEx(Addr = 0x10000000, Type = 0xFFFFFFF2)  returns 0x00000003 (0006ms, 2342ms total)
T33CC 003:101 JLINK_Go() -- CPU_WriteMem(4 bytes @ 0xE0002000) (0008ms, 2351ms total)
T33CC 003:111 JLINK_IsHalted()  returns TRUE (0010ms, 2363ms total)
T33CC 003:122 JLINK_ReadReg(R15 (PC))  returns 0x10000000 (0004ms, 2357ms total)
T33CC 003:128 JLINK_ClrBPEx(BPHandle = 0x00000003)  returns 0x00 (0005ms, 2364ms total)
T33CC 003:135 JLINK_ReadReg(R0)  returns 0x00000000 (0005ms, 2371ms total)
T33CC 003:152 JLINK_WriteMem(0x10000000, 0x0178 Bytes, ...) - Data: 00 BE 0A E0 0D 78 2D 06 68 40 08 24 40 00 00 D3 ... -- CPU_WriteMem(376 bytes @ 0x10000000)  returns 0x178 (0015ms, 2387ms total)
T33CC 003:169 JLINK_WriteReg(R0, 0x00000000)  returns 0x00 (0005ms, 2394ms total)
T33CC 003:176 JLINK_WriteReg(R1, 0x00B71B00)  returns 0x00 (0005ms, 2401ms total)
T33CC 003:183 JLINK_WriteReg(R2, 0x00000002)  returns 0x00 (0006ms, 2409ms total)
T33CC 003:191 JLINK_WriteReg(R3, 0x00000000)  returns 0x00 (0005ms, 2416ms total)
T33CC 003:197 JLINK_WriteReg(R4, 0x00000000)  returns 0x00 (0005ms, 2422ms total)
T33CC 003:204 JLINK_WriteReg(R5, 0x00000000)  returns 0x00 (0005ms, 2429ms total)
T33CC 003:211 JLINK_WriteReg(R6, 0x00000000)  returns 0x00 (0006ms, 2437ms total)
T33CC 003:219 JLINK_WriteReg(R7, 0x00000000)  returns 0x00 (0006ms, 2445ms total)
T33CC 003:226 JLINK_WriteReg(R8, 0x00000000)  returns 0x00 (0004ms, 2450ms total)
T33CC 003:232 JLINK_WriteReg(R9, 0x10000170)  returns 0x00 (0007ms, 2459ms total)
T33CC 003:240 JLINK_WriteReg(R10, 0x00000000)  returns 0x00 (0006ms, 2466ms total)
T33CC 003:247 JLINK_WriteReg(R11, 0x00000000)  returns 0x00 (0006ms, 2473ms total)
T33CC 003:254 JLINK_WriteReg(R12, 0x00000000)  returns 0x00 (0005ms, 2479ms total)
T33CC 003:261 JLINK_WriteReg(R13 (SP), 0x10000FE0)  returns 0x00 (0005ms, 2486ms total)
T33CC 003:268 JLINK_WriteReg(R14, 0x10000001)  returns 0x00 (0006ms, 2494ms total)
T33CC 003:275 JLINK_WriteReg(R15 (PC), 0x1000003C)  returns 0x00 (0006ms, 2501ms total)
T33CC 003:282 JLINK_WriteReg(XPSR, 0x01000000)  returns 0x00 (0007ms, 2509ms total)
T33CC 003:290 JLINK_WriteReg(MSP, 0x10000FE0)  returns 0x00 (0006ms, 2516ms total)
T33CC 003:298 JLINK_WriteReg(PSP, 0x10000FE0)  returns 0x00 (0006ms, 2524ms total)
T33CC 003:305 JLINK_WriteReg(CFBP, 0x00000000)  returns 0x00 (0005ms, 2530ms total)
T33CC 003:311 JLINK_SetBPEx(Addr = 0x10000000, Type = 0xFFFFFFF2)  returns 0x00000004 (0005ms, 2536ms total)
T33CC 003:318 JLINK_Go() -- CPU_WriteMem(4 bytes @ 0xE0002000) (0008ms, 2546ms total)
T33CC 003:327 JLINK_IsHalted()  returns TRUE (0011ms, 2558ms total)
T33CC 003:339 JLINK_ReadReg(R15 (PC))  returns 0x10000000 (0005ms, 2552ms total)
T33CC 003:345 JLINK_ClrBPEx(BPHandle = 0x00000004)  returns 0x00 (0004ms, 2557ms total)
T33CC 003:351 JLINK_ReadReg(R0)  returns 0x00000000 (0005ms, 2564ms total)
T33CC 003:356 JLINK_WriteMem(0x10000198, 0x0100 Bytes, ...) - Data: 48 15 00 10 9D 01 00 00 AD 01 00 00 A5 01 00 00 ... -- CPU_WriteMem(256 bytes @ 0x10000198)  returns 0x100 (0011ms, 2575ms total)
T33CC 003:369 JLINK_WriteReg(R0, 0x00000000)  returns 0x00 (0006ms, 2583ms total)
T33CC 003:377 JLINK_WriteReg(R1, 0x00000100)  returns 0x00 (0006ms, 2591ms total)
T33CC 003:385 JLINK_WriteReg(R2, 0x10000198)  returns 0x00 (0006ms, 2599ms total)
T33CC 003:392 JLINK_WriteReg(R3, 0x00000000)  returns 0x00 (0008ms, 2608ms total)
T33CC 003:402 JLINK_WriteReg(R4, 0x00000000)  returns 0x00 (0006ms, 2616ms total)
T33CC 003:409 JLINK_WriteReg(R5, 0x00000000)  returns 0x00 (0005ms, 2622ms total)
T33CC 003:415 JLINK_WriteReg(R6, 0x00000000)  returns 0x00 (0006ms, 2629ms total)
T33CC 003:422 JLINK_WriteReg(R7, 0x00000000)  returns 0x00 (0007ms, 2637ms total)
T33CC 003:430 JLINK_WriteReg(R8, 0x00000000)  returns 0x00 (0007ms, 2645ms total)
T33CC 003:440 JLINK_WriteReg(R9, 0x10000170)  returns 0x00 (0007ms, 2655ms total)
T33CC 003:448 JLINK_WriteReg(R10, 0x00000000)  returns 0x00 (0006ms, 2662ms total)
T33CC 003:456 JLINK_WriteReg(R11, 0x00000000)  returns 0x00 (0006ms, 2670ms total)
T33CC 003:464 JLINK_WriteReg(R12, 0x00000000)  returns 0x00 (0005ms, 2677ms total)
T33CC 003:471 JLINK_WriteReg(R13 (SP), 0x10000FE0)  returns 0x00 (0004ms, 2683ms total)
T33CC 003:477 JLINK_WriteReg(R14, 0x10000001)  returns 0x00 (0005ms, 2690ms total)
T33CC 003:484 JLINK_WriteReg(R15 (PC), 0x100000EE)  returns 0x00 (0006ms, 2698ms total)
T33CC 003:491 JLINK_WriteReg(XPSR, 0x01000000)  returns 0x00 (0006ms, 2705ms total)
T33CC 003:498 JLINK_WriteReg(MSP, 0x10000FE0)  returns 0x00 (0008ms, 2714ms total)
T33CC 003:507 JLINK_WriteReg(PSP, 0x10000FE0)  returns 0x00 (0006ms, 2721ms total)
T33CC 003:515 JLINK_WriteReg(CFBP, 0x00000000)  returns 0x00 (0006ms, 2729ms total)
T33CC 003:523 JLINK_SetBPEx(Addr = 0x10000000, Type = 0xFFFFFFF2)  returns 0x00000005 (0004ms, 2735ms total)
T33CC 003:529 JLINK_Go() -- CPU_WriteMem(4 bytes @ 0xE0002000) (0008ms, 2745ms total)
T33CC 003:539 JLINK_IsHalted()  returns TRUE (0010ms, 2757ms total)
T33CC 003:550 JLINK_ReadReg(R15 (PC))  returns 0x10000000 (0006ms, 2753ms total)
T33CC 003:557 JLINK_ClrBPEx(BPHandle = 0x00000005)  returns 0x00 (0006ms, 2760ms total)
T33CC 003:564 JLINK_ReadReg(R0)  returns 0x00000000 (0007ms, 2768ms total)
T33CC 003:573 JLINK_WriteMem(0x10000198, 0x0100 Bytes, ...) - Data: 1C 1B 00 00 10 3A 02 D3 78 C8 78 C1 FA D8 52 07 ... -- CPU_WriteMem(256 bytes @ 0x10000198)  returns 0x100 (0012ms, 2781ms total)
T33CC 003:586 JLINK_WriteReg(R0, 0x00000100)  returns 0x00 (0006ms, 2788ms total)
T33CC 003:593 JLINK_WriteReg(R1, 0x00000100)  returns 0x00 (0005ms, 2794ms total)
T33CC 003:599 JLINK_WriteReg(R2, 0x10000198)  returns 0x00 (0005ms, 2800ms total)
T33CC 003:606 JLINK_WriteReg(R3, 0x00000000)  returns 0x00 (0004ms, 2806ms total)
T33CC 003:611 JLINK_WriteReg(R4, 0x00000000)  returns 0x00 (0007ms, 2814ms total)
T33CC 003:620 JLINK_WriteReg(R5, 0x00000000)  returns 0x00 (0005ms, 2821ms total)
T33CC 003:626 JLINK_WriteReg(R6, 0x00000000)  returns 0x00 (0006ms, 2828ms total)
T33CC 003:634 JLINK_WriteReg(R7, 0x00000000)  returns 0x00 (0005ms, 2835ms total)
T33CC 003:640 JLINK_WriteReg(R8, 0x00000000)  returns 0x00 (0007ms, 2843ms total)
T33CC 003:648 JLINK_WriteReg(R9, 0x10000170)  returns 0x00 (0006ms, 2850ms total)
T33CC 003:656 JLINK_WriteReg(R10, 0x00000000)  returns 0x00 (0006ms, 2858ms total)
T33CC 003:663 JLINK_WriteReg(R11, 0x00000000)  returns 0x00 (0006ms, 2865ms total)
T33CC 003:670 JLINK_WriteReg(R12, 0x00000000)  returns 0x00 (0006ms, 2872ms total)
T33CC 003:677 JLINK_WriteReg(R13 (SP), 0x10000FE0)  returns 0x00 (0005ms, 2878ms total)
T33CC 003:683 JLINK_WriteReg(R14, 0x10000001)  returns 0x00 (0005ms, 2884ms total)
T33CC 003:689 JLINK_WriteReg(R15 (PC), 0x100000EE)  returns 0x00 (0005ms, 2890ms total)
T33CC 003:695 JLINK_WriteReg(XPSR, 0x01000000)  returns 0x00 (0005ms, 2896ms total)
T33CC 003:701 JLINK_WriteReg(MSP, 0x10000FE0)  returns 0x00 (0006ms, 2903ms total)
T33CC 003:708 JLINK_WriteReg(PSP, 0x10000FE0)  returns 0x00 (0005ms, 2909ms total)
T33CC 003:714 JLINK_WriteReg(CFBP, 0x00000000)  returns 0x00 (0008ms, 2918ms total)
T33CC 003:723 JLINK_SetBPEx(Addr = 0x10000000, Type = 0xFFFFFFF2)  returns 0x00000006 (0006ms, 2925ms total)
T33CC 003:730 JLINK_Go() -- CPU_WriteMem(4 bytes @ 0xE0002000) (0008ms, 2934ms total)
T33CC 003:740 JLINK_IsHalted()  returns TRUE (0009ms, 2945ms total)
T33CC 003:750 JLINK_ReadReg(R15 (PC))  returns 0x10000000 (0007ms, 2943ms total)
T33CC 003:758 JLINK_ClrBPEx(BPHandle = 0x00000006)  returns 0x00 (0006ms, 2950ms total)
T33CC 003:765 JLINK_ReadReg(R0)  returns 0x00000000 (0007ms, 2958ms total)
T33CC 003:774 JLINK_WriteMem(0x10000198, 0x0100 Bytes, ...) - Data: 88 43 30 49 80 39 48 60 08 46 40 68 49 15 08 43 ... -- CPU_WriteMem(256 bytes @ 0x10000198)  returns 0x100 (0013ms, 2973ms total)
T33CC 003:788 JLINK_WriteReg(R0, 0x00000200)  returns 0x00 (0006ms, 2980ms total)
T33CC 003:796 JLINK_WriteReg(R1, 0x00000100)  returns 0x00 (0006ms, 2988ms total)
T33CC 003:803 JLINK_WriteReg(R2, 0x10000198)  returns 0x00 (0006ms, 2995ms total)
T33CC 003:810 JLINK_WriteReg(R3, 0x00000000)  returns 0x00 (0006ms, 3002ms total)
T33CC 003:817 JLINK_WriteReg(R4, 0x00000000)  returns 0x00 (0007ms, 3010ms total)
T33CC 003:825 JLINK_WriteReg(R5, 0x00000000)  returns 0x00 (0007ms, 3018ms total)
T33CC 003:834 JLINK_WriteReg(R6, 0x00000000)  returns 0x00 (0005ms, 3025ms total)
T33CC 003:841 JLINK_WriteReg(R7, 0x00000000)  returns 0x00 (0005ms, 3032ms total)
T33CC 003:848 JLINK_WriteReg(R8, 0x00000000)  returns 0x00 (0006ms, 3040ms total)
T33CC 003:855 JLINK_WriteReg(R9, 0x10000170)  returns 0x00 (0005ms, 3046ms total)
T33CC 003:862 JLINK_WriteReg(R10, 0x00000000)  returns 0x00 (0005ms, 3053ms total)
T33CC 003:868 JLINK_WriteReg(R11, 0x00000000)  returns 0x00 (0005ms, 3059ms total)
T33CC 003:874 JLINK_WriteReg(R12, 0x00000000)  returns 0x00 (0006ms, 3066ms total)
T33CC 003:882 JLINK_WriteReg(R13 (SP), 0x10000FE0)  returns 0x00 (0005ms, 3073ms total)
T33CC 003:889 JLINK_WriteReg(R14, 0x10000001)  returns 0x00 (0005ms, 3079ms total)
T33CC 003:895 JLINK_WriteReg(R15 (PC), 0x100000EE)  returns 0x00 (0005ms, 3085ms total)
T33CC 003:901 JLINK_WriteReg(XPSR, 0x01000000)  returns 0x00 (0006ms, 3092ms total)
T33CC 003:909 JLINK_WriteReg(MSP, 0x10000FE0)  returns 0x00 (0005ms, 3099ms total)
T33CC 003:915 JLINK_WriteReg(PSP, 0x10000FE0)  returns 0x00 (0006ms, 3106ms total)
T33CC 003:923 JLINK_WriteReg(CFBP, 0x00000000)  returns 0x00 (0006ms, 3114ms total)
T33CC 003:930 JLINK_SetBPEx(Addr = 0x10000000, Type = 0xFFFFFFF2)  returns 0x00000007 (0006ms, 3121ms total)
T33CC 003:938 JLINK_Go() -- CPU_WriteMem(4 bytes @ 0xE0002000) (0009ms, 3132ms total)
T33CC 003:948 JLINK_IsHalted()  returns TRUE (0011ms, 3144ms total)
T33CC 003:961 JLINK_ReadReg(R15 (PC))  returns 0x10000000 (0004ms, 3137ms total)
T33CC 003:967 JLINK_ClrBPEx(BPHandle = 0x00000007)  returns 0x00 (0006ms, 3145ms total)
T33CC 003:974 JLINK_ReadReg(R0)  returns 0x00000000 (0006ms, 3152ms total)
T33CC 003:982 JLINK_WriteMem(0x10000198, 0x0100 Bytes, ...) - Data: 10 B5 00 24 73 48 40 6A C0 05 00 0F 03 00 01 F0 ... -- CPU_WriteMem(256 bytes @ 0x10000198)  returns 0x100 (0012ms, 3165ms total)
T33CC 003:996 JLINK_WriteReg(R0, 0x00000300)  returns 0x00 (0005ms, 3172ms total)
T33CC 004:003 JLINK_WriteReg(R1, 0x00000100)  returns 0x00 (0006ms, 3180ms total)
T33CC 004:010 JLINK_WriteReg(R2, 0x10000198)  returns 0x00 (0005ms, 3186ms total)
T33CC 004:016 JLINK_WriteReg(R3, 0x00000000)  returns 0x00 (0006ms, 3193ms total)
T33CC 004:024 JLINK_WriteReg(R4, 0x00000000)  returns 0x00 (0004ms, 3199ms total)
T33CC 004:029 JLINK_WriteReg(R5, 0x00000000)  returns 0x00 (0007ms, 3207ms total)
T33CC 004:037 JLINK_WriteReg(R6, 0x00000000)  returns 0x00 (0005ms, 3213ms total)
T33CC 004:043 JLINK_WriteReg(R7, 0x00000000)  returns 0x00 (0007ms, 3221ms total)
T33CC 004:052 JLINK_WriteReg(R8, 0x00000000)  returns 0x00 (0006ms, 3229ms total)
T33CC 004:059 JLINK_WriteReg(R9, 0x10000170)  returns 0x00 (0005ms, 3235ms total)
T33CC 004:065 JLINK_WriteReg(R10, 0x00000000)  returns 0x00 (0006ms, 3242ms total)
T33CC 004:072 JLINK_WriteReg(R11, 0x00000000)  returns 0x00 (0007ms, 3250ms total)
T33CC 004:080 JLINK_WriteReg(R12, 0x00000000)  returns 0x00 (0006ms, 3257ms total)
T33CC 004:088 JLINK_WriteReg(R13 (SP), 0x10000FE0)  returns 0x00 (0006ms, 3265ms total)
T33CC 004:095 JLINK_WriteReg(R14, 0x10000001)  returns 0x00 (0006ms, 3272ms total)
T33CC 004:102 JLINK_WriteReg(R15 (PC), 0x100000EE)  returns 0x00 (0005ms, 3278ms total)
T33CC 004:108 JLINK_WriteReg(XPSR, 0x01000000)  returns 0x00 (0007ms, 3286ms total)
T33CC 004:116 JLINK_WriteReg(MSP, 0x10000FE0)  returns 0x00 (0005ms, 3292ms total)
T33CC 004:122 JLINK_WriteReg(PSP, 0x10000FE0)  returns 0x00 (0005ms, 3298ms total)
T33CC 004:129 JLINK_WriteReg(CFBP, 0x00000000)  returns 0x00 (0005ms, 3304ms total)
T33CC 004:135 JLINK_SetBPEx(Addr = 0x10000000, Type = 0xFFFFFFF2)  returns 0x00000008 (0006ms, 3311ms total)
T33CC 004:143 JLINK_Go() -- CPU_WriteMem(4 bytes @ 0xE0002000) (0007ms, 3320ms total)
T33CC 004:152 JLINK_IsHalted()  returns TRUE (0010ms, 3332ms total)
T33CC 004:164 JLINK_ReadReg(R15 (PC))  returns 0x10000000 (0005ms, 3327ms total)
T33CC 004:171 JLINK_ClrBPEx(BPHandle = 0x00000008)  returns 0x00 (0005ms, 3334ms total)
T33CC 004:178 JLINK_ReadReg(R0)  returns 0x00000000 (0004ms, 3340ms total)
T33CC 004:185 JLINK_WriteMem(0x10000198, 0x0100 Bytes, ...) - Data: 80 68 C0 06 C0 0E 40 1C 42 49 48 43 42 49 08 60 ... -- CPU_WriteMem(256 bytes @ 0x10000198)  returns 0x100 (0012ms, 3354ms total)
T33CC 004:198 JLINK_WriteReg(R0, 0x00000400)  returns 0x00 (0005ms, 3360ms total)
T33CC 004:205 JLINK_WriteReg(R1, 0x00000100)  returns 0x00 (0006ms, 3368ms total)
T33CC 004:212 JLINK_WriteReg(R2, 0x10000198)  returns 0x00 (0006ms, 3375ms total)
T33CC 004:220 JLINK_WriteReg(R3, 0x00000000)  returns 0x00 (0005ms, 3382ms total)
T33CC 004:226 JLINK_WriteReg(R4, 0x00000000)  returns 0x00 (0004ms, 3387ms total)
T33CC 004:231 JLINK_WriteReg(R5, 0x00000000)  returns 0x00 (0006ms, 3394ms total)
T33CC 004:238 JLINK_WriteReg(R6, 0x00000000)  returns 0x00 (0006ms, 3401ms total)
T33CC 004:245 JLINK_WriteReg(R7, 0x00000000)  returns 0x00 (0005ms, 3407ms total)
T33CC 004:251 JLINK_WriteReg(R8, 0x00000000)  returns 0x00 (0007ms, 3415ms total)
T33CC 004:259 JLINK_WriteReg(R9, 0x10000170)  returns 0x00 (0006ms, 3422ms total)
T33CC 004:266 JLINK_WriteReg(R10, 0x00000000)  returns 0x00 (0008ms, 3431ms total)
T33CC 004:275 JLINK_WriteReg(R11, 0x00000000)  returns 0x00 (0006ms, 3438ms total)
T33CC 004:282 JLINK_WriteReg(R12, 0x00000000)  returns 0x00 (0005ms, 3444ms total)
T33CC 004:288 JLINK_WriteReg(R13 (SP), 0x10000FE0)  returns 0x00 (0006ms, 3451ms total)
T33CC 004:295 JLINK_WriteReg(R14, 0x10000001)  returns 0x00 (0005ms, 3457ms total)
T33CC 004:302 JLINK_WriteReg(R15 (PC), 0x100000EE)  returns 0x00 (0005ms, 3464ms total)
T33CC 004:308 JLINK_WriteReg(XPSR, 0x01000000)  returns 0x00 (0006ms, 3471ms total)
T33CC 004:315 JLINK_WriteReg(MSP, 0x10000FE0)  returns 0x00 (0006ms, 3478ms total)
T33CC 004:323 JLINK_WriteReg(PSP, 0x10000FE0)  returns 0x00 (0005ms, 3485ms total)
T33CC 004:330 JLINK_WriteReg(CFBP, 0x00000000)  returns 0x00 (0006ms, 3493ms total)
T33CC 004:337 JLINK_SetBPEx(Addr = 0x10000000, Type = 0xFFFFFFF2)  returns 0x00000009 (0005ms, 3499ms total)
T33CC 004:343 JLINK_Go() -- CPU_WriteMem(4 bytes @ 0xE0002000) (0007ms, 3507ms total)
T33CC 004:351 JLINK_IsHalted()  returns TRUE (0008ms, 3516ms total)
T33CC 004:361 JLINK_ReadReg(R15 (PC))  returns 0x10000000 (0005ms, 3513ms total)
T33CC 004:367 JLINK_ClrBPEx(BPHandle = 0x00000009)  returns 0x00 (0005ms, 3519ms total)
T33CC 004:373 JLINK_ReadReg(R0)  returns 0x00000000 (0006ms, 3526ms total)
T33CC 004:381 JLINK_WriteMem(0x10000198, 0x0100 Bytes, ...) - Data: 70 38 39 00 00 09 3D 00 40 16 40 00 80 23 43 00 ... -- CPU_WriteMem(256 bytes @ 0x10000198)  returns 0x100 (0012ms, 3540ms total)
T33CC 004:395 JLINK_WriteReg(R0, 0x00000500)  returns 0x00 (0006ms, 3548ms total)
T33CC 004:403 JLINK_WriteReg(R1, 0x00000100)  returns 0x00 (0006ms, 3556ms total)
T33CC 004:410 JLINK_WriteReg(R2, 0x10000198)  returns 0x00 (0006ms, 3563ms total)
T33CC 004:417 JLINK_WriteReg(R3, 0x00000000)  returns 0x00 (0006ms, 3570ms total)
T33CC 004:425 JLINK_WriteReg(R4, 0x00000000)  returns 0x00 (0006ms, 3578ms total)
T33CC 004:432 JLINK_WriteReg(R5, 0x00000000)  returns 0x00 (0006ms, 3585ms total)
T33CC 004:440 JLINK_WriteReg(R6, 0x00000000)  returns 0x00 (0006ms, 3593ms total)
T33CC 004:447 JLINK_WriteReg(R7, 0x00000000)  returns 0x00 (0006ms, 3600ms total)
T33CC 004:455 JLINK_WriteReg(R8, 0x00000000)  returns 0x00 (0006ms, 3608ms total)
T33CC 004:462 JLINK_WriteReg(R9, 0x10000170)  returns 0x00 (0006ms, 3615ms total)
T33CC 004:469 JLINK_WriteReg(R10, 0x00000000)  returns 0x00 (0006ms, 3622ms total)
T33CC 004:477 JLINK_WriteReg(R11, 0x00000000)  returns 0x00 (0005ms, 3629ms total)
T33CC 004:483 JLINK_WriteReg(R12, 0x00000000)  returns 0x00 (0008ms, 3638ms total)
T33CC 004:493 JLINK_WriteReg(R13 (SP), 0x10000FE0)  returns 0x00 (0006ms, 3646ms total)
T33CC 004:500 JLINK_WriteReg(R14, 0x10000001)  returns 0x00 (0006ms, 3653ms total)
T33CC 004:507 JLINK_WriteReg(R15 (PC), 0x100000EE)  returns 0x00 (0004ms, 3658ms total)
T33CC 004:513 JLINK_WriteReg(XPSR, 0x01000000)  returns 0x00 (0005ms, 3665ms total)
T33CC 004:520 JLINK_WriteReg(MSP, 0x10000FE0)  returns 0x00 (0006ms, 3673ms total)
T33CC 004:527 JLINK_WriteReg(PSP, 0x10000FE0)  returns 0x00 (0006ms, 3680ms total)
T33CC 004:535 JLINK_WriteReg(CFBP, 0x00000000)  returns 0x00 (0005ms, 3687ms total)
T33CC 004:541 JLINK_SetBPEx(Addr = 0x10000000, Type = 0xFFFFFFF2)  returns 0x0000000A (0005ms, 3693ms total)
T33CC 004:547 JLINK_Go() -- CPU_WriteMem(4 bytes @ 0xE0002000) (0008ms, 3702ms total)
T33CC 004:556 JLINK_IsHalted()  returns TRUE (0009ms, 3712ms total)
T33CC 004:566 JLINK_ReadReg(R15 (PC))  returns 0x10000000 (0007ms, 3710ms total)
T33CC 004:574 JLINK_ClrBPEx(BPHandle = 0x0000000A)  returns 0x00 (0007ms, 3718ms total)
T33CC 004:582 JLINK_ReadReg(R0)  returns 0x00000000 (0006ms, 3725ms total)
T33CC 004:590 JLINK_WriteMem(0x10000198, 0x0100 Bytes, ...) - Data: C0 07 C0 0F 00 28 16 D0 C4 48 40 69 C1 B2 C7 48 ... -- CPU_WriteMem(256 bytes @ 0x10000198)  returns 0x100 (0013ms, 3739ms total)
T33CC 004:605 JLINK_WriteReg(R0, 0x00000600)  returns 0x00 (0006ms, 3747ms total)
T33CC 004:612 JLINK_WriteReg(R1, 0x00000100)  returns 0x00 (0006ms, 3754ms total)
T33CC 004:620 JLINK_WriteReg(R2, 0x10000198)  returns 0x00 (0006ms, 3762ms total)
T33CC 004:627 JLINK_WriteReg(R3, 0x00000000)  returns 0x00 (0006ms, 3769ms total)
T33CC 004:634 JLINK_WriteReg(R4, 0x00000000)  returns 0x00 (0006ms, 3776ms total)
T33CC 004:643 JLINK_WriteReg(R5, 0x00000000)  returns 0x00 (0005ms, 3784ms total)
T33CC 004:649 JLINK_WriteReg(R6, 0x00000000)  returns 0x00 (0006ms, 3791ms total)
T33CC 004:657 JLINK_WriteReg(R7, 0x00000000)  returns 0x00 (0006ms, 3799ms total)
T33CC 004:665 JLINK_WriteReg(R8, 0x00000000)  returns 0x00 (0005ms, 3806ms total)
T33CC 004:672 JLINK_WriteReg(R9, 0x10000170)  returns 0x00 (0005ms, 3813ms total)
T33CC 004:678 JLINK_WriteReg(R10, 0x00000000)  returns 0x00 (0005ms, 3819ms total)
T33CC 004:684 JLINK_WriteReg(R11, 0x00000000)  returns 0x00 (0005ms, 3825ms total)
T33CC 004:691 JLINK_WriteReg(R12, 0x00000000)  returns 0x00 (0005ms, 3832ms total)
T33CC 004:697 JLINK_WriteReg(R13 (SP), 0x10000FE0)  returns 0x00 (0005ms, 3838ms total)
T33CC 004:705 JLINK_WriteReg(R14, 0x10000001)  returns 0x00 (0007ms, 3848ms total)
T33CC 004:714 JLINK_WriteReg(R15 (PC), 0x100000EE)  returns 0x00 (0006ms, 3856ms total)
T33CC 004:721 JLINK_WriteReg(XPSR, 0x01000000)  returns 0x00 (0006ms, 3863ms total)
T33CC 004:728 JLINK_WriteReg(MSP, 0x10000FE0)  returns 0x00 (0005ms, 3869ms total)
T33CC 004:734 JLINK_WriteReg(PSP, 0x10000FE0)  returns 0x00 (0006ms, 3876ms total)
T33CC 004:741 JLINK_WriteReg(CFBP, 0x00000000)  returns 0x00 (0006ms, 3883ms total)
T33CC 004:748 JLINK_SetBPEx(Addr = 0x10000000, Type = 0xFFFFFFF2)  returns 0x0000000B (0005ms, 3889ms total)
T33CC 004:754 JLINK_Go() -- CPU_WriteMem(4 bytes @ 0xE0002000) (0007ms, 3897ms total)
T33CC 004:762 JLINK_IsHalted()  returns TRUE (0010ms, 3908ms total)
T33CC 004:773 JLINK_ReadReg(R15 (PC))  returns 0x10000000 (0006ms, 3904ms total)
T33CC 004:780 JLINK_ClrBPEx(BPHandle = 0x0000000B)  returns 0x00 (0005ms, 3910ms total)
T33CC 004:786 JLINK_ReadReg(R0)  returns 0x00000000 (0005ms, 3916ms total)
T33CC 004:793 JLINK_WriteMem(0x10000198, 0x0100 Bytes, ...) - Data: 01 F0 92 F9 40 1E 8B 49 08 62 05 20 08 60 01 20 ... -- CPU_WriteMem(256 bytes @ 0x10000198)  returns 0x100 (0012ms, 3929ms total)
T33CC 004:806 JLINK_WriteReg(R0, 0x00000700)  returns 0x00 (0004ms, 3934ms total)
T33CC 004:812 JLINK_WriteReg(R1, 0x00000100)  returns 0x00 (0004ms, 3940ms total)
T33CC 004:817 JLINK_WriteReg(R2, 0x10000198)  returns 0x00 (0009ms, 3950ms total)
T33CC 004:827 JLINK_WriteReg(R3, 0x00000000)  returns 0x00 (0007ms, 3958ms total)
T33CC 004:836 JLINK_WriteReg(R4, 0x00000000)  returns 0x00 (0005ms, 3965ms total)
T33CC 004:843 JLINK_WriteReg(R5, 0x00000000)  returns 0x00 (0005ms, 3972ms total)
T33CC 004:849 JLINK_WriteReg(R6, 0x00000000)  returns 0x00 (0006ms, 3979ms total)
T33CC 004:856 JLINK_WriteReg(R7, 0x00000000)  returns 0x00 (0006ms, 3986ms total)
T33CC 004:864 JLINK_WriteReg(R8, 0x00000000)  returns 0x00 (0006ms, 3994ms total)
T33CC 004:871 JLINK_WriteReg(R9, 0x10000170)  returns 0x00 (0006ms, 4001ms total)
T33CC 004:879 JLINK_WriteReg(R10, 0x00000000)  returns 0x00 (0005ms, 4008ms total)
T33CC 004:886 JLINK_WriteReg(R11, 0x00000000)  returns 0x00 (0005ms, 4015ms total)
T33CC 004:893 JLINK_WriteReg(R12, 0x00000000)  returns 0x00 (0005ms, 4022ms total)
T33CC 004:900 JLINK_WriteReg(R13 (SP), 0x10000FE0)  returns 0x00 (0005ms, 4028ms total)
T33CC 004:907 JLINK_WriteReg(R14, 0x10000001)  returns 0x00 (0006ms, 4036ms total)
T33CC 004:914 JLINK_WriteReg(R15 (PC), 0x100000EE)  returns 0x00 (0006ms, 4043ms total)
T33CC 004:921 JLINK_WriteReg(XPSR, 0x01000000)  returns 0x00 (0007ms, 4051ms total)
T33CC 004:930 JLINK_WriteReg(MSP, 0x10000FE0)  returns 0x00 (0005ms, 4058ms total)
T33CC 004:937 JLINK_WriteReg(PSP, 0x10000FE0)  returns 0x00 (0005ms, 4065ms total)
T33CC 004:944 JLINK_WriteReg(CFBP, 0x00000000)  returns 0x00 (0005ms, 4072ms total)
T33CC 004:950 JLINK_SetBPEx(Addr = 0x10000000, Type = 0xFFFFFFF2)  returns 0x0000000C (0009ms, 4082ms total)
T33CC 004:961 JLINK_Go() -- CPU_WriteMem(4 bytes @ 0xE0002000) (0008ms, 4092ms total)
T33CC 004:971 JLINK_IsHalted()  returns TRUE (0009ms, 4103ms total)
T33CC 004:982 JLINK_ReadReg(R15 (PC))  returns 0x10000000 (0005ms, 4099ms total)
T33CC 004:989 JLINK_ClrBPEx(BPHandle = 0x0000000C)  returns 0x00 (0005ms, 4106ms total)
T33CC 004:995 JLINK_ReadReg(R0)  returns 0x00000000 (0006ms, 4113ms total)
T33CC 005:003 JLINK_WriteMem(0x10000198, 0x0100 Bytes, ...) - Data: 05 21 49 06 08 43 46 49 88 60 01 20 45 49 48 61 ... -- CPU_WriteMem(256 bytes @ 0x10000198)  returns 0x100 (0012ms, 4126ms total)
T33CC 005:017 JLINK_WriteReg(R0, 0x00000800)  returns 0x00 (0006ms, 4134ms total)
T33CC 005:024 JLINK_WriteReg(R1, 0x00000100)  returns 0x00 (0005ms, 4140ms total)
T33CC 005:030 JLINK_WriteReg(R2, 0x10000198)  returns 0x00 (0006ms, 4147ms total)
T33CC 005:038 JLINK_WriteReg(R3, 0x00000000)  returns 0x00 (0006ms, 4155ms total)
T33CC 005:045 JLINK_WriteReg(R4, 0x00000000)  returns 0x00 (0005ms, 4161ms total)
T33CC 005:052 JLINK_WriteReg(R5, 0x00000000)  returns 0x00 (0005ms, 4168ms total)
T33CC 005:059 JLINK_WriteReg(R6, 0x00000000)  returns 0x00 (0005ms, 4175ms total)
T33CC 005:065 JLINK_WriteReg(R7, 0x00000000)  returns 0x00 (0007ms, 4183ms total)
T33CC 005:074 JLINK_WriteReg(R8, 0x00000000)  returns 0x00 (0006ms, 4191ms total)
T33CC 005:081 JLINK_WriteReg(R9, 0x10000170)  returns 0x00 (0007ms, 4199ms total)
T33CC 005:089 JLINK_WriteReg(R10, 0x00000000)  returns 0x00 (0005ms, 4205ms total)
T33CC 005:095 JLINK_WriteReg(R11, 0x00000000)  returns 0x00 (0005ms, 4211ms total)
T33CC 005:102 JLINK_WriteReg(R12, 0x00000000)  returns 0x00 (0005ms, 4218ms total)
T33CC 005:108 JLINK_WriteReg(R13 (SP), 0x10000FE0)  returns 0x00 (0006ms, 4225ms total)
T33CC 005:115 JLINK_WriteReg(R14, 0x10000001)  returns 0x00 (0006ms, 4232ms total)
T33CC 005:122 JLINK_WriteReg(R15 (PC), 0x100000EE)  returns 0x00 (0006ms, 4239ms total)
T33CC 005:129 JLINK_WriteReg(XPSR, 0x01000000)  returns 0x00 (0005ms, 4245ms total)
T33CC 005:137 JLINK_WriteReg(MSP, 0x10000FE0)  returns 0x00 (0006ms, 4253ms total)
T33CC 005:145 JLINK_WriteReg(PSP, 0x10000FE0)  returns 0x00 (0005ms, 4260ms total)
T33CC 005:152 JLINK_WriteReg(CFBP, 0x00000000)  returns 0x00 (0006ms, 4268ms total)
T33CC 005:159 JLINK_SetBPEx(Addr = 0x10000000, Type = 0xFFFFFFF2)  returns 0x0000000D (0006ms, 4275ms total)
T33CC 005:167 JLINK_Go() -- CPU_WriteMem(4 bytes @ 0xE0002000) (0008ms, 4285ms total)
T33CC 005:176 JLINK_IsHalted()  returns TRUE (0009ms, 4295ms total)
T33CC 005:186 JLINK_ReadReg(R15 (PC))  returns 0x10000000 (0005ms, 4291ms total)
T33CC 005:192 JLINK_ClrBPEx(BPHandle = 0x0000000D)  returns 0x00 (0005ms, 4297ms total)
T33CC 005:199 JLINK_ReadReg(R0)  returns 0x00000000 (0007ms, 4306ms total)
T33CC 005:208 JLINK_WriteMem(0x10000198, 0x0100 Bytes, ...) - Data: 10 B5 0A 48 00 78 01 28 07 D1 08 48 41 88 00 1D ... -- CPU_WriteMem(256 bytes @ 0x10000198)  returns 0x100 (0012ms, 4320ms total)
T33CC 005:221 JLINK_WriteReg(R0, 0x00000900)  returns 0x00 (0005ms, 4326ms total)
T33CC 005:228 JLINK_WriteReg(R1, 0x00000100)  returns 0x00 (0006ms, 4334ms total)
T33CC 005:236 JLINK_WriteReg(R2, 0x10000198)  returns 0x00 (0007ms, 4343ms total)
T33CC 005:244 JLINK_WriteReg(R3, 0x00000000)  returns 0x00 (0006ms, 4350ms total)
T33CC 005:252 JLINK_WriteReg(R4, 0x00000000)  returns 0x00 (0007ms, 4359ms total)
T33CC 005:261 JLINK_WriteReg(R5, 0x00000000)  returns 0x00 (0008ms, 4369ms total)
T33CC 005:272 JLINK_WriteReg(R6, 0x00000000)  returns 0x00 (0007ms, 4379ms total)
T33CC 005:281 JLINK_WriteReg(R7, 0x00000000)  returns 0x00 (0006ms, 4387ms total)
T33CC 005:289 JLINK_WriteReg(R8, 0x00000000)  returns 0x00 (0005ms, 4394ms total)
T33CC 005:295 JLINK_WriteReg(R9, 0x10000170)  returns 0x00 (0005ms, 4400ms total)
T33CC 005:302 JLINK_WriteReg(R10, 0x00000000)  returns 0x00 (0006ms, 4408ms total)
T33CC 005:309 JLINK_WriteReg(R11, 0x00000000)  returns 0x00 (0006ms, 4415ms total)
T33CC 005:316 JLINK_WriteReg(R12, 0x00000000)  returns 0x00 (0006ms, 4422ms total)
T33CC 005:324 JLINK_WriteReg(R13 (SP), 0x10000FE0)  returns 0x00 (0005ms, 4429ms total)
T33CC 005:331 JLINK_WriteReg(R14, 0x10000001)  returns 0x00 (0006ms, 4437ms total)
T33CC 005:339 JLINK_WriteReg(R15 (PC), 0x100000EE)  returns 0x00 (0005ms, 4444ms total)
T33CC 005:346 JLINK_WriteReg(XPSR, 0x01000000)  returns 0x00 (0005ms, 4451ms total)
T33CC 005:352 JLINK_WriteReg(MSP, 0x10000FE0)  returns 0x00 (0006ms, 4458ms total)
T33CC 005:359 JLINK_WriteReg(PSP, 0x10000FE0)  returns 0x00 (0006ms, 4465ms total)
T33CC 005:366 JLINK_WriteReg(CFBP, 0x00000000)  returns 0x00 (0007ms, 4473ms total)
T33CC 005:374 JLINK_SetBPEx(Addr = 0x10000000, Type = 0xFFFFFFF2)  returns 0x0000000E (0005ms, 4479ms total)
T33CC 005:381 JLINK_Go() -- CPU_WriteMem(4 bytes @ 0xE0002000) (0007ms, 4488ms total)
T33CC 005:389 JLINK_IsHalted()  returns TRUE (0009ms, 4498ms total)
T33CC 005:399 JLINK_ReadReg(R15 (PC))  returns 0x10000000 (0005ms, 4494ms total)
T33CC 005:405 JLINK_ClrBPEx(BPHandle = 0x0000000E)  returns 0x00 (0006ms, 4501ms total)
T33CC 005:412 JLINK_ReadReg(R0)  returns 0x00000000 (0004ms, 4506ms total)
T33CC 005:418 JLINK_WriteMem(0x10000198, 0x0100 Bytes, ...) - Data: 0D D1 64 20 FF F7 E4 FB 0A 48 41 88 00 1D FF F7 ... -- CPU_WriteMem(256 bytes @ 0x10000198)  returns 0x100 (0013ms, 4521ms total)
T33CC 005:432 JLINK_WriteReg(R0, 0x00000A00)  returns 0x00 (0006ms, 4528ms total)
T33CC 005:440 JLINK_WriteReg(R1, 0x00000100)  returns 0x00 (0006ms, 4536ms total)
T33CC 005:448 JLINK_WriteReg(R2, 0x10000198)  returns 0x00 (0005ms, 4543ms total)
T33CC 005:455 JLINK_WriteReg(R3, 0x00000000)  returns 0x00 (0006ms, 4551ms total)
T33CC 005:462 JLINK_WriteReg(R4, 0x00000000)  returns 0x00 (0006ms, 4558ms total)
T33CC 005:470 JLINK_WriteReg(R5, 0x00000000)  returns 0x00 (0006ms, 4566ms total)
T33CC 005:477 JLINK_WriteReg(R6, 0x00000000)  returns 0x00 (0006ms, 4573ms total)
T33CC 005:485 JLINK_WriteReg(R7, 0x00000000)  returns 0x00 (0007ms, 4582ms total)
T33CC 005:493 JLINK_WriteReg(R8, 0x00000000)  returns 0x00 (0006ms, 4589ms total)
T33CC 005:500 JLINK_WriteReg(R9, 0x10000170)  returns 0x00 (0005ms, 4595ms total)
T33CC 005:506 JLINK_WriteReg(R10, 0x00000000)  returns 0x00 (0005ms, 4601ms total)
T33CC 005:513 JLINK_WriteReg(R11, 0x00000000)  returns 0x00 (0006ms, 4609ms total)
T33CC 005:520 JLINK_WriteReg(R12, 0x00000000)  returns 0x00 (0006ms, 4616ms total)
T33CC 005:527 JLINK_WriteReg(R13 (SP), 0x10000FE0)  returns 0x00 (0006ms, 4623ms total)
T33CC 005:535 JLINK_WriteReg(R14, 0x10000001)  returns 0x00 (0006ms, 4631ms total)
T33CC 005:543 JLINK_WriteReg(R15 (PC), 0x100000EE)  returns 0x00 (0006ms, 4639ms total)
T33CC 005:551 JLINK_WriteReg(XPSR, 0x01000000)  returns 0x00 (0005ms, 4646ms total)
T33CC 005:557 JLINK_WriteReg(MSP, 0x10000FE0)  returns 0x00 (0006ms, 4653ms total)
T33CC 005:565 JLINK_WriteReg(PSP, 0x10000FE0)  returns 0x00 (0005ms, 4659ms total)
T33CC 005:572 JLINK_WriteReg(CFBP, 0x00000000)  returns 0x00 (0005ms, 4666ms total)
T33CC 005:579 JLINK_SetBPEx(Addr = 0x10000000, Type = 0xFFFFFFF2)  returns 0x0000000F (0007ms, 4675ms total)
T33CC 005:588 JLINK_Go() -- CPU_WriteMem(4 bytes @ 0xE0002000) (0007ms, 4684ms total)
T33CC 005:597 JLINK_IsHalted()  returns TRUE (0008ms, 4694ms total)
T33CC 005:607 JLINK_ReadReg(R15 (PC))  returns 0x10000000 (0003ms, 4689ms total)
T33CC 005:611 JLINK_ClrBPEx(BPHandle = 0x0000000F)  returns 0x00 (0005ms, 4695ms total)
T33CC 005:618 JLINK_ReadReg(R0)  returns 0x00000000 (0005ms, 4702ms total)
T33CC 005:624 JLINK_WriteMem(0x10000198, 0x0100 Bytes, ...) - Data: 09 03 88 42 02 D3 03 20 09 B0 F0 BD 72 B6 06 98 ... -- CPU_WriteMem(256 bytes @ 0x10000198)  returns 0x100 (0012ms, 4715ms total)
T33CC 005:637 JLINK_WriteReg(R0, 0x00000B00)  returns 0x00 (0005ms, 4721ms total)
T33CC 005:643 JLINK_WriteReg(R1, 0x00000100)  returns 0x00 (0006ms, 4728ms total)
T33CC 005:650 JLINK_WriteReg(R2, 0x10000198)  returns 0x00 (0005ms, 4734ms total)
T33CC 005:656 JLINK_WriteReg(R3, 0x00000000)  returns 0x00 (0006ms, 4741ms total)
T33CC 005:663 JLINK_WriteReg(R4, 0x00000000)  returns 0x00 (0004ms, 4746ms total)
T33CC 005:669 JLINK_WriteReg(R5, 0x00000000)  returns 0x00 (0006ms, 4754ms total)
T33CC 005:676 JLINK_WriteReg(R6, 0x00000000)  returns 0x00 (0005ms, 4760ms total)
T33CC 005:682 JLINK_WriteReg(R7, 0x00000000)  returns 0x00 (0005ms, 4766ms total)
T33CC 005:688 JLINK_WriteReg(R8, 0x00000000)  returns 0x00 (0006ms, 4773ms total)
T33CC 005:696 JLINK_WriteReg(R9, 0x10000170)  returns 0x00 (0007ms, 4782ms total)
T33CC 005:704 JLINK_WriteReg(R10, 0x00000000)  returns 0x00 (0007ms, 4790ms total)
T33CC 005:712 JLINK_WriteReg(R11, 0x00000000)  returns 0x00 (0005ms, 4796ms total)
T33CC 005:719 JLINK_WriteReg(R12, 0x00000000)  returns 0x00 (0006ms, 4804ms total)
T33CC 005:726 JLINK_WriteReg(R13 (SP), 0x10000FE0)  returns 0x00 (0006ms, 4811ms total)
T33CC 005:732 JLINK_WriteReg(R14, 0x10000001)  returns 0x00 (0007ms, 4818ms total)
T33CC 005:740 JLINK_WriteReg(R15 (PC), 0x100000EE)  returns 0x00 (0006ms, 4825ms total)
T33CC 005:747 JLINK_WriteReg(XPSR, 0x01000000)  returns 0x00 (0006ms, 4832ms total)
T33CC 005:754 JLINK_WriteReg(MSP, 0x10000FE0)  returns 0x00 (0005ms, 4838ms total)
T33CC 005:760 JLINK_WriteReg(PSP, 0x10000FE0)  returns 0x00 (0004ms, 4843ms total)
T33CC 005:766 JLINK_WriteReg(CFBP, 0x00000000)  returns 0x00 (0006ms, 4851ms total)
T33CC 005:773 JLINK_SetBPEx(Addr = 0x10000000, Type = 0xFFFFFFF2)  returns 0x00000010 (0006ms, 4858ms total)
T33CC 005:781 JLINK_Go() -- CPU_WriteMem(4 bytes @ 0xE0002000) (0008ms, 4868ms total)
T33CC 005:790 JLINK_IsHalted()  returns TRUE (0010ms, 4879ms total)
T33CC 005:802 JLINK_ReadReg(R15 (PC))  returns 0x10000000 (0006ms, 4875ms total)
T33CC 005:809 JLINK_ClrBPEx(BPHandle = 0x00000010)  returns 0x00 (0005ms, 4881ms total)
T33CC 005:815 JLINK_ReadReg(R0)  returns 0x00000000 (0006ms, 4888ms total)
T33CC 005:823 JLINK_WriteMem(0x10000198, 0x0100 Bytes, ...) - Data: 92 02 01 99 00 F0 A2 F8 02 90 A0 02 01 22 92 02 ... -- CPU_WriteMem(256 bytes @ 0x10000198)  returns 0x100 (0013ms, 4903ms total)
T33CC 005:838 JLINK_WriteReg(R0, 0x00000C00)  returns 0x00 (0004ms, 4909ms total)
T33CC 005:843 JLINK_WriteReg(R1, 0x00000100)  returns 0x00 (0005ms, 4915ms total)
T33CC 005:849 JLINK_WriteReg(R2, 0x10000198)  returns 0x00 (0006ms, 4922ms total)
T33CC 005:856 JLINK_WriteReg(R3, 0x00000000)  returns 0x00 (0004ms, 4927ms total)
T33CC 005:861 JLINK_WriteReg(R4, 0x00000000)  returns 0x00 (0005ms, 4933ms total)
T33CC 005:868 JLINK_WriteReg(R5, 0x00000000)  returns 0x00 (0006ms, 4941ms total)
T33CC 005:875 JLINK_WriteReg(R6, 0x00000000)  returns 0x00 (0006ms, 4948ms total)
T33CC 005:882 JLINK_WriteReg(R7, 0x00000000)  returns 0x00 (0005ms, 4954ms total)
T33CC 005:888 JLINK_WriteReg(R8, 0x00000000)  returns 0x00 (0006ms, 4961ms total)
T33CC 005:896 JLINK_WriteReg(R9, 0x10000170)  returns 0x00 (0004ms, 4967ms total)
T33CC 005:901 JLINK_WriteReg(R10, 0x00000000)  returns 0x00 (0007ms, 4975ms total)
T33CC 005:910 JLINK_WriteReg(R11, 0x00000000)  returns 0x00 (0004ms, 4981ms total)
T33CC 005:916 JLINK_WriteReg(R12, 0x00000000)  returns 0x00 (0006ms, 4989ms total)
T33CC 005:923 JLINK_WriteReg(R13 (SP), 0x10000FE0)  returns 0x00 (0005ms, 4995ms total)
T33CC 005:930 JLINK_WriteReg(R14, 0x10000001)  returns 0x00 (0005ms, 5002ms total)
T33CC 005:937 JLINK_WriteReg(R15 (PC), 0x100000EE)  returns 0x00 (0005ms, 5009ms total)
T33CC 005:944 JLINK_WriteReg(XPSR, 0x01000000)  returns 0x00 (0005ms, 5016ms total)
T33CC 005:950 JLINK_WriteReg(MSP, 0x10000FE0)  returns 0x00 (0007ms, 5024ms total)
T33CC 005:959 JLINK_WriteReg(PSP, 0x10000FE0)  returns 0x00 (0005ms, 5031ms total)
T33CC 005:966 JLINK_WriteReg(CFBP, 0x00000000)  returns 0x00 (0004ms, 5036ms total)
T33CC 005:971 JLINK_SetBPEx(Addr = 0x10000000, Type = 0xFFFFFFF2)  returns 0x00000011 (0005ms, 5042ms total)
T33CC 005:978 JLINK_Go() -- CPU_WriteMem(4 bytes @ 0xE0002000) (0007ms, 5051ms total)
T33CC 005:987 JLINK_IsHalted()  returns TRUE (0009ms, 5062ms total)
T33CC 005:997 JLINK_ReadReg(R15 (PC))  returns 0x10000000 (0005ms, 5058ms total)
T33CC 006:004 JLINK_ClrBPEx(BPHandle = 0x00000011)  returns 0x00 (0004ms, 5064ms total)
T33CC 006:010 JLINK_ReadReg(R0)  returns 0x00000000 (0004ms, 5070ms total)
T33CC 006:016 JLINK_WriteMem(0x10000198, 0x0100 Bytes, ...) - Data: DE FB 03 E0 60 1C 84 B2 FF 2C F3 DD 00 BF FF 20 ... -- CPU_WriteMem(256 bytes @ 0x10000198)  returns 0x100 (0013ms, 5084ms total)
T33CC 006:031 JLINK_WriteReg(R0, 0x00000D00)  returns 0x00 (0007ms, 5093ms total)
T33CC 006:039 JLINK_WriteReg(R1, 0x00000100)  returns 0x00 (0005ms, 5099ms total)
T33CC 006:045 JLINK_WriteReg(R2, 0x10000198)  returns 0x00 (0005ms, 5105ms total)
T33CC 006:051 JLINK_WriteReg(R3, 0x00000000)  returns 0x00 (0005ms, 5111ms total)
T33CC 006:057 JLINK_WriteReg(R4, 0x00000000)  returns 0x00 (0006ms, 5118ms total)
T33CC 006:064 JLINK_WriteReg(R5, 0x00000000)  returns 0x00 (0005ms, 5124ms total)
T33CC 006:071 JLINK_WriteReg(R6, 0x00000000)  returns 0x00 (0006ms, 5132ms total)
T33CC 006:078 JLINK_WriteReg(R7, 0x00000000)  returns 0x00 (0007ms, 5140ms total)
T33CC 006:086 JLINK_WriteReg(R8, 0x00000000)  returns 0x00 (0006ms, 5147ms total)
T33CC 006:093 JLINK_WriteReg(R9, 0x10000170)  returns 0x00 (0005ms, 5153ms total)
T33CC 006:100 JLINK_WriteReg(R10, 0x00000000)  returns 0x00 (0006ms, 5161ms total)
T33CC 006:107 JLINK_WriteReg(R11, 0x00000000)  returns 0x00 (0005ms, 5167ms total)
T33CC 006:116 JLINK_WriteReg(R12, 0x00000000)  returns 0x00 (0005ms, 5176ms total)
T33CC 006:123 JLINK_WriteReg(R13 (SP), 0x10000FE0)  returns 0x00 (0005ms, 5183ms total)
T33CC 006:129 JLINK_WriteReg(R14, 0x10000001)  returns 0x00 (0008ms, 5192ms total)
T33CC 006:138 JLINK_WriteReg(R15 (PC), 0x100000EE)  returns 0x00 (0006ms, 5199ms total)
T33CC 006:146 JLINK_WriteReg(XPSR, 0x01000000)  returns 0x00 (0005ms, 5206ms total)
T33CC 006:153 JLINK_WriteReg(MSP, 0x10000FE0)  returns 0x00 (0006ms, 5214ms total)
T33CC 006:161 JLINK_WriteReg(PSP, 0x10000FE0)  returns 0x00 (0006ms, 5222ms total)
T33CC 006:168 JLINK_WriteReg(CFBP, 0x00000000)  returns 0x00 (0006ms, 5229ms total)
T33CC 006:176 JLINK_SetBPEx(Addr = 0x10000000, Type = 0xFFFFFFF2)  returns 0x00000012 (0005ms, 5235ms total)
T33CC 006:182 JLINK_Go() -- CPU_WriteMem(4 bytes @ 0xE0002000) (0008ms, 5244ms total)
T33CC 006:192 JLINK_IsHalted()  returns TRUE (0010ms, 5256ms total)
T33CC 006:203 JLINK_ReadReg(R15 (PC))  returns 0x10000000 (0007ms, 5253ms total)
T33CC 006:212 JLINK_ClrBPEx(BPHandle = 0x00000012)  returns 0x00 (0005ms, 5260ms total)
T33CC 006:219 JLINK_ReadReg(R0)  returns 0x00000000 (0005ms, 5267ms total)
T33CC 006:226 JLINK_WriteMem(0x10000198, 0x0100 Bytes, ...) - Data: 00 68 70 BD 10 B5 39 20 11 49 08 60 11 49 10 48 ... -- CPU_WriteMem(256 bytes @ 0x10000198)  returns 0x100 (0012ms, 5280ms total)
T33CC 006:240 JLINK_WriteReg(R0, 0x00000E00)  returns 0x00 (0006ms, 5288ms total)
